
T0B80 000:545 SEGGER J-Link V4.80g Log File (0002ms, 0367ms total)
T0B80 000:545 DLL Compiled: Feb 13 2014 20:50:02 (0002ms, 0367ms total)
T0B80 000:545 Logging started @ 2015-01-20 00:18 (0002ms, 0367ms total)
T0B80 000:547 JLINK_SetWarnOutHandler(...) (0000ms, 0367ms total)
T0B80 000:547 JLINK_OpenEx(...)
Firmware: J-Link ARM V8 compiled Nov 25 2013 19:20:08
Hardware: V8.00
S/N: 99999994
Feature(s): RDI,FlashDL,FlashBP,JFlash,GDBFULL  returns O.K. (0306ms, 0673ms total)
T0B80 000:853 JLINK_SetErrorOutHandler(...) (0000ms, 0673ms total)
T0B80 000:853 JLINK_ExecCommand("ProjectFile = "C:\Users\db\Desktop\driver2015\JLinkSettings.ini"", ...)Device "UNSPECIFIED" selected (0 KB flash, 0 KB RAM).  returns 0x00 (0003ms, 0676ms total)
T0B80 000:856 JLINK_ExecCommand("Device = STM32F405RGTx", ...)Device "UNSPECIFIED" selected (0 KB flash, 0 KB RAM).  returns 0x00 (0000ms, 0676ms total)
T0B80 000:856 JLINK_ExecCommand("DisableConnectionTimeout", ...)  returns 0x01 (0000ms, 0676ms total)
T0B80 000:856 JLINK_GetHardwareVersion()  returns 0x13880 (0000ms, 0676ms total)
T0B80 000:856 JLINK_GetDLLVersion()  returns 48007 (0000ms, 0676ms total)
T0B80 000:856 JLINK_GetFirmwareString(...) (0000ms, 0676ms total)
T0B80 000:856 JLINK_GetDLLVersion()  returns 48007 (0000ms, 0676ms total)
T0B80 000:856 JLINK_GetCompileDateTime() (0000ms, 0676ms total)
T0B80 000:856 JLINK_GetFirmwareString(...) (0000ms, 0676ms total)
T0B80 000:857 JLINK_GetHardwareVersion()  returns 0x13880 (0000ms, 0676ms total)
T0B80 000:857 JLINK_TIF_Select(JLINKARM_TIF_SWD)  returns 0x00 (0013ms, 0689ms total)
T0B80 000:870 JLINK_SetSpeed(2000) (0002ms, 0691ms total)
T0B80 000:872 JLINK_GetId() >0x108 TIF>Found SWD-DP with ID 0x2BA01477 >0x0D TIF> >0x21 TIF> >0x0D TIF> >0x28 TIF> >0x0D TIF> >0x28 TIF> >0x0D TIF> >0x21 TIF> >0x0D TIF> >0x28 TIF> >0x0D TIF> >0x21 TIF> >0x0D TIF> >0x21 TIF> >0x0D TIF> >0x21 TIF> >0x0D TIF> >0x21 TIF> >0x0D TIF> >0x28 TIF> >0x0D TIF> >0x28 TIF> >0x0D TIF> >0x21 TIF> >0x0D TIF> >0x28 TIF> >0x0D TIF> >0x28 TIF> >0x0D TIF> >0x28 TIF> >0x0D TIF> >0x21 TIF> >0x0D TIF> >0x21 TIF> >0x0D TIF> >0x28 TIF> >0x0D TIF> >0x21 TIF> >0x0D TIF>
 >0x21 TIF>Found Cortex-M4 r0p1, Little endian. -- CPU_WriteMem(4 bytes @ 0xE0002000) -- CPU_ReadMem(4 bytes @ 0xE000EDF0) -- CPU_ReadMem(4 bytes @ 0xE0002000)FPUnit: 6 code (BP) slots and 2 literal slots -- CPU_ReadMem(4 bytes @ 0xE000EDFC) -- CPU_ReadMem(4 bytes @ 0xE0001000) -- CPU_WriteMem(4 bytes @ 0xE0001000) -- CPU_ReadMem(4 bytes @ 0xE00FF010)TPIU fitted. -- CPU_ReadMem(4 bytes @ 0xE00FF014)ETM fitted. -- CPU_ReadMem(4 bytes @ 0xE00FF018) >0x0D TIF> >0x21 TIF>  returns 0x2BA01477
 (0137ms, 0828ms total)
T0B80 001:009 JLINK_GetDeviceFamily()  returns 14 (0000ms, 0828ms total)
T0B80 001:009 JLINK_ReadMem (0xE00FFFF0, 0x0010 Bytes, ...) -- CPU is running -- CPU_ReadMem(16 bytes @ 0xE00FFFF0) -- Data:  0D 00 00 00 10 00 00 00 05 00 00 00 B1 00 00 00  returns 0x00 (0004ms, 0832ms total)
T0B80 001:013 JLINK_ReadMem (0xE00FFFD0, 0x0020 Bytes, ...) -- CPU is running -- CPU_ReadMem(32 bytes @ 0xE00FFFD0) -- Data:  00 00 00 00 00 00 00 00 00 00 00 00 00 00 00 00 ...  returns 0x00 (0003ms, 0835ms total)
T0B80 001:016 JLINK_ReadMem (0xE00FF000, 0x0018 Bytes, ...) -- CPU is running -- CPU_ReadMem(24 bytes @ 0xE00FF000) -- Data:  03 F0 F0 FF 03 20 F0 FF 03 30 F0 FF 03 10 F0 FF ...  returns 0x00 (0004ms, 0839ms total)
T0B80 001:020 JLINK_ReadMemU32(0xE000ED00, 0x0001 Items, ...) -- CPU is running -- CPU_ReadMem(4 bytes @ 0xE000ED00) -- Data:  41 C2 0F 41  returns 0x01 (0003ms, 0842ms total)
T0B80 001:023 JLINK_ReadMemU32(0xE000EF40, 0x0001 Items, ...) -- CPU is running -- CPU_ReadMem(4 bytes @ 0xE000EF40) -- Data:  21 00 11 10  returns 0x01 (0003ms, 0845ms total)
T0B80 001:026 JLINK_ReadMemU32(0xE000EF44, 0x0001 Items, ...) -- CPU is running -- CPU_ReadMem(4 bytes @ 0xE000EF44) -- Data:  11 00 00 11  returns 0x01 (0002ms, 0847ms total)
T0B80 001:028 JLINK_SetResetType(JLINKARM_RESET_TYPE_NORMAL)  returns JLINKARM_RESET_TYPE_NORMAL (0000ms, 0847ms total)
T0B80 001:028 JLINK_Reset() -- CPU is running -- CPU_WriteMem(4 bytes @ 0xE000EDF0) -- CPU is running -- CPU_WriteMem(4 bytes @ 0xE000EDFC) >0x35 TIF> -- CPU is running -- CPU_WriteMem(4 bytes @ 0xE000ED0C) -- CPU is running -- CPU_ReadMem(4 bytes @ 0xE000EDF0) -- CPU is running -- CPU_ReadMem(4 bytes @ 0xE000EDF0) -- CPU is running -- CPU_WriteMem(4 bytes @ 0xE000EDF0) -- CPU is running -- CPU_WriteMem(4 bytes @ 0xE000EDFC) -- CPU is running -- CPU_ReadMem(4 bytes @ 0xE000EDF0)
 -- CPU_WriteMem(4 bytes @ 0xE0002000) -- CPU_ReadMem(4 bytes @ 0xE000EDFC) -- CPU_ReadMem(4 bytes @ 0xE0001000) (0053ms, 0900ms total)
T0B80 001:081 JLINK_ReadReg(R15 (PC))  returns 0x080020C8 (0000ms, 0900ms total)
T0B80 001:081 JLINK_ReadReg(XPSR)  returns 0x01000000 (0000ms, 0900ms total)
T0B80 001:081 JLINK_Halt()  returns 0x00 (0000ms, 0900ms total)
T0B80 001:081 JLINK_IsHalted()  returns TRUE (0000ms, 0900ms total)
T0B80 001:081 JLINK_ReadMemU32(0xE000EDF0, 0x0001 Items, ...) -- CPU_ReadMem(4 bytes @ 0xE000EDF0) -- Data:  03 00 03 00  returns 0x01 (0004ms, 0904ms total)
T0B80 001:085 JLINK_WriteU32(0xE000EDF0, 0xA05F0003) -- CPU_WriteMem(4 bytes @ 0xE000EDF0)  returns 0x00 (0004ms, 0908ms total)
T0B80 001:089 JLINK_WriteU32(0xE000EDFC, 0x01000000) -- CPU_WriteMem(4 bytes @ 0xE000EDFC)  returns 0x00 (0004ms, 0912ms total)
T0B80 001:093 JLINK_GetHWStatus(...)  returns 0x00 (0005ms, 0917ms total)
T0B80 001:098 JLINK_GetNumBPUnits(Type = 0xFFFFFF00)  returns 0x06 (0000ms, 0917ms total)
T0B80 001:098 JLINK_GetNumBPUnits(Type = 0xF0)  returns 0x2000 (0000ms, 0917ms total)
T0B80 001:098 JLINK_GetNumWPUnits()  returns 0x04 (0001ms, 0918ms total)
T0B80 001:099 JLINK_GetSpeed()  returns 0x7D0 (0000ms, 0918ms total)
T0B80 001:099 JLINK_ReadMemU32(0xE000E004, 0x0001 Items, ...) -- CPU_ReadMem(4 bytes @ 0xE000E004) -- Data:  02 00 00 00  returns 0x01 (0003ms, 0921ms total)
T0B80 001:102 JLINK_ReadMemU32(0xE000E004, 0x0001 Items, ...) -- CPU_ReadMem(4 bytes @ 0xE000E004) -- Data:  02 00 00 00  returns 0x01 (0003ms, 0924ms total)
T0B80 001:105 JLINK_WriteMem(0xE0001000, 0x001C Bytes, ...) -- Data:  01 00 00 00 00 00 00 00 00 00 00 00 00 00 00 00 ... -- CPU_WriteMem(28 bytes @ 0xE0001000)  returns 0x1C (0003ms, 0927ms total)
T0B80 001:108 JLINK_ReadMem (0xE0001000, 0x001C Bytes, ...) -- CPU_ReadMem(28 bytes @ 0xE0001000) -- Data:  01 00 00 40 00 00 00 00 00 00 00 00 00 00 00 00 ...  returns 0x00 (0003ms, 0930ms total)
T0B80 001:111 JLINK_ReadReg(R15 (PC))  returns 0x080020C8 (0000ms, 0930ms total)
T0B80 001:111 JLINK_ReadReg(XPSR)  returns 0x01000000 (0000ms, 0930ms total)
T0B80 001:221 JLINK_SetResetType(JLINKARM_RESET_TYPE_NORMAL)  returns JLINKARM_RESET_TYPE_NORMAL (0000ms, 0930ms total)
T0B80 001:221 JLINK_Reset() -- CPU_WriteMem(4 bytes @ 0xE000EDF0) -- CPU_WriteMem(4 bytes @ 0xE000EDFC) >0x35 TIF> -- CPU_WriteMem(4 bytes @ 0xE000ED0C) -- CPU_ReadMem(4 bytes @ 0xE000EDF0) -- CPU_ReadMem(4 bytes @ 0xE000EDF0) -- CPU_WriteMem(4 bytes @ 0xE000EDF0) -- CPU_WriteMem(4 bytes @ 0xE000EDFC) -- CPU is running -- CPU_ReadMem(4 bytes @ 0xE000EDF0) -- CPU_WriteMem(4 bytes @ 0xE0002000) -- CPU_ReadMem(4 bytes @ 0xE000EDFC) -- CPU_ReadMem(4 bytes @ 0xE0001000) (0082ms, 1012ms total)
T0B80 001:303 JLINK_ReadReg(R15 (PC))  returns 0x080020C8 (0000ms, 1012ms total)
T0B80 001:303 JLINK_ReadReg(XPSR)  returns 0x01000000 (0000ms, 1012ms total)
T0B80 001:305 JLINK_ReadMem (0x080020C8, 0x003C Bytes, ...) -- CPU_ReadMem(60 bytes @ 0x080020C8) -- Data:  09 48 80 47 09 48 00 47 FE E7 FE E7 FE E7 FE E7 ...  returns 0x00 (0004ms, 1016ms total)
T0B80 003:164 JLINK_ReadMem (0x40000424, 0x0004 Bytes, ...) -- CPU_ReadMem(4 bytes @ 0x40000424) -- Data:  00 00 00 00  returns 0x00 (0017ms, 1033ms total)
T0B80 003:182 JLINK_ReadMem (0x40000424, 0x0004 Bytes, ...) -- CPU_ReadMem(4 bytes @ 0x40000424) -- Data:  00 00 00 00  returns 0x00 (0007ms, 1040ms total)
T0B80 003:189 JLINK_ReadMem (0x40000424, 0x0004 Bytes, ...) -- CPU_ReadMem(4 bytes @ 0x40000424) -- Data:  00 00 00 00  returns 0x00 (0003ms, 1043ms total)
T0B80 003:207 JLINK_ReadMem (0x40020410, 0x0004 Bytes, ...) -- CPU_ReadMem(4 bytes @ 0x40020410) -- Data:  80 02 00 00  returns 0x00 (0003ms, 1046ms total)
T0B80 003:210 JLINK_ReadMem (0x40020410, 0x0004 Bytes, ...) -- CPU_ReadMem(4 bytes @ 0x40020410) -- Data:  80 02 00 00  returns 0x00 (0008ms, 1054ms total)
T0B80 003:218 JLINK_ReadMem (0x40020410, 0x0004 Bytes, ...) -- CPU_ReadMem(4 bytes @ 0x40020410) -- Data:  80 02 00 00  returns 0x00 (0003ms, 1057ms total)
T0B80 003:228 JLINK_ReadMem (0x40020010, 0x0004 Bytes, ...) -- CPU_ReadMem(4 bytes @ 0x40020010) -- Data:  00 00 00 A8  returns 0x00 (0009ms, 1066ms total)
T0B80 003:237 JLINK_ReadMem (0x40020010, 0x0004 Bytes, ...) -- CPU_ReadMem(4 bytes @ 0x40020010) -- Data:  00 00 00 A8  returns 0x00 (0002ms, 1068ms total)
T0B80 003:239 JLINK_ReadMem (0x40020010, 0x0004 Bytes, ...) -- CPU_ReadMem(4 bytes @ 0x40020010) -- Data:  00 00 00 A8  returns 0x00 (0002ms, 1070ms total)
T0B80 003:253 JLINK_ReadMem (0x20000358, 0x0004 Bytes, ...) -- CPU_ReadMem(4 bytes @ 0x20000358) -- Data:  00 00 00 00  returns 0x00 (0005ms, 1075ms total)
T0F68 003:309 JLINK_SetBPEx(Addr = 0x08001E20, Type = 0xFFFFFFF2)  returns 0x00000001 (0000ms, 1075ms total)
T0F68 003:309 JLINK_Go() -- CPU_WriteMem(4 bytes @ 0xE0002000) -- CPU_WriteMem(4 bytes @ 0xE0002008) -- CPU_WriteMem(4 bytes @ 0xE000200C) -- CPU_WriteMem(4 bytes @ 0xE0002010) -- CPU_WriteMem(4 bytes @ 0xE0002014) -- CPU_WriteMem(4 bytes @ 0xE0002018) -- CPU_WriteMem(4 bytes @ 0xE000201C) -- CPU_WriteMem(4 bytes @ 0xE0001004) (0046ms, 1121ms total)
T0F68 003:455 JLINK_IsHalted()  returns TRUE (0041ms, 1162ms total)
T0F68 003:496 JLINK_Halt()  returns 0x00 (0000ms, 1121ms total)
T0F68 003:496 JLINK_IsHalted()  returns TRUE (0000ms, 1121ms total)
T0F68 003:496 JLINK_IsHalted()  returns TRUE (0000ms, 1121ms total)
T0F68 003:496 JLINK_IsHalted()  returns TRUE (0000ms, 1121ms total)
T0F68 003:496 JLINK_ReadReg(R15 (PC))  returns 0x08001E20 (0000ms, 1121ms total)
T0F68 003:496 JLINK_ReadReg(XPSR)  returns 0x21000000 (0000ms, 1121ms total)
T0F68 003:496 JLINK_ClrBPEx(BPHandle = 0x00000001)  returns 0x00 (0000ms, 1121ms total)
T0F68 003:496 JLINK_ReadMemU32(0xE000ED30, 0x0001 Items, ...) -- CPU_ReadMem(4 bytes @ 0xE000ED30) -- Data:  03 00 00 00  returns 0x01 (0002ms, 1123ms total)
T0F68 003:498 JLINK_ReadMemU32(0xE0001028, 0x0001 Items, ...) -- CPU_ReadMem(4 bytes @ 0xE0001028) -- Data:  00 00 00 00  returns 0x01 (0004ms, 1127ms total)
T0F68 003:502 JLINK_ReadMemU32(0xE0001038, 0x0001 Items, ...) -- CPU_ReadMem(4 bytes @ 0xE0001038) -- Data:  00 02 00 00  returns 0x01 (0002ms, 1129ms total)
T0F68 003:504 JLINK_ReadMemU32(0xE0001048, 0x0001 Items, ...) -- CPU_ReadMem(4 bytes @ 0xE0001048) -- Data:  00 00 00 00  returns 0x01 (0002ms, 1131ms total)
T0F68 003:507 JLINK_ReadMemU32(0xE0001058, 0x0001 Items, ...) -- CPU_ReadMem(4 bytes @ 0xE0001058) -- Data:  00 00 00 00  returns 0x01 (0002ms, 1134ms total)
T0F68 003:510 JLINK_ReadReg(R0)  returns 0x2001A218 (0000ms, 1134ms total)
T0F68 003:510 JLINK_ReadReg(R1)  returns 0x2001A418 (0000ms, 1134ms total)
T0F68 003:510 JLINK_ReadReg(R2)  returns 0x2001A418 (0000ms, 1134ms total)
T0F68 003:510 JLINK_ReadReg(R3)  returns 0x2001A418 (0000ms, 1134ms total)
T0F68 003:510 JLINK_ReadReg(R4)  returns 0x00000000 (0000ms, 1134ms total)
T0F68 003:510 JLINK_ReadReg(R5)  returns 0x2001A1B4 (0000ms, 1134ms total)
T0F68 003:510 JLINK_ReadReg(R6)  returns 0x00000000 (0000ms, 1134ms total)
T0F68 003:510 JLINK_ReadReg(R7)  returns 0x00000000 (0000ms, 1134ms total)
T0F68 003:510 JLINK_ReadReg(R8)  returns 0x00000000 (0000ms, 1134ms total)
T0F68 003:510 JLINK_ReadReg(R9)  returns 0x00000000 (0000ms, 1134ms total)
T0F68 003:510 JLINK_ReadReg(R10)  returns 0x0800EF80 (0000ms, 1134ms total)
T0F68 003:510 JLINK_ReadReg(R11)  returns 0x00000000 (0000ms, 1134ms total)
T0F68 003:510 JLINK_ReadReg(R12)  returns 0x2001A1F4 (0001ms, 1135ms total)
T0F68 003:511 JLINK_ReadReg(R13 (SP))  returns 0x2001A818 (0000ms, 1135ms total)
T0F68 003:511 JLINK_ReadReg(R14)  returns 0x08000257 (0000ms, 1135ms total)
T0F68 003:511 JLINK_ReadReg(R15 (PC))  returns 0x08001E20 (0000ms, 1135ms total)
T0F68 003:511 JLINK_ReadReg(XPSR)  returns 0x21000000 (0000ms, 1135ms total)
T0F68 003:511 JLINK_ReadReg(MSP)  returns 0x2001A818 (0000ms, 1135ms total)
T0F68 003:511 JLINK_ReadReg(PSP)  returns 0x00000000 (0000ms, 1135ms total)
T0F68 003:511 JLINK_ReadReg(CFBP)  returns 0x04000000 (0000ms, 1135ms total)
T0F68 003:511 JLINK_ReadReg(FPSCR)  returns 0x03000000 (0013ms, 1148ms total)
T0F68 003:524 JLINK_ReadReg(FPS0)  returns 0x00000000 (0000ms, 1148ms total)
T0F68 003:524 JLINK_ReadReg(FPS1)  returns 0x00000000 (0000ms, 1148ms total)
T0F68 003:524 JLINK_ReadReg(FPS2)  returns 0x00000000 (0000ms, 1148ms total)
T0F68 003:524 JLINK_ReadReg(FPS3)  returns 0x00000000 (0000ms, 1148ms total)
T0F68 003:524 JLINK_ReadReg(FPS4)  returns 0x00000000 (0001ms, 1149ms total)
T0F68 003:525 JLINK_ReadReg(FPS5)  returns 0x00000000 (0000ms, 1149ms total)
T0F68 003:525 JLINK_ReadReg(FPS6)  returns 0x00000000 (0000ms, 1149ms total)
T0F68 003:525 JLINK_ReadReg(FPS7)  returns 0x00000000 (0000ms, 1149ms total)
T0F68 003:525 JLINK_ReadReg(FPS8)  returns 0x00000000 (0000ms, 1149ms total)
T0F68 003:525 JLINK_ReadReg(FPS9)  returns 0x00000000 (0000ms, 1149ms total)
T0F68 003:525 JLINK_ReadReg(FPS10)  returns 0x00000000 (0000ms, 1149ms total)
T0F68 003:525 JLINK_ReadReg(FPS11)  returns 0x00000000 (0000ms, 1149ms total)
T0F68 003:525 JLINK_ReadReg(FPS12)  returns 0x00000000 (0000ms, 1149ms total)
T0F68 003:525 JLINK_ReadReg(FPS13)  returns 0x00000000 (0000ms, 1149ms total)
T0F68 003:525 JLINK_ReadReg(FPS14)  returns 0x00000000 (0000ms, 1149ms total)
T0F68 003:525 JLINK_ReadReg(FPS15)  returns 0x00000000 (0000ms, 1149ms total)
T0F68 003:525 JLINK_ReadReg(FPS16)  returns 0x00000000 (0000ms, 1149ms total)
T0F68 003:525 JLINK_ReadReg(FPS17)  returns 0x00000000 (0000ms, 1149ms total)
T0F68 003:525 JLINK_ReadReg(FPS18)  returns 0x00000000 (0000ms, 1149ms total)
T0F68 003:525 JLINK_ReadReg(FPS19)  returns 0x00000000 (0000ms, 1149ms total)
T0F68 003:525 JLINK_ReadReg(FPS20)  returns 0x00000000 (0000ms, 1149ms total)
T0F68 003:525 JLINK_ReadReg(FPS31)  returns 0x00000000 (0000ms, 1149ms total)
T0F68 003:525 JLINK_ReadReg(FPS7)  returns 0x00000000 (0001ms, 1150ms total)
T0F68 003:526 JLINK_ReadReg(FPS8)  returns 0x00000000 (0000ms, 1150ms total)
T0F68 003:526 JLINK_ReadReg(FPS9)  returns 0x00000000 (0000ms, 1150ms total)
T0F68 003:526 JLINK_ReadReg(FPS10)  returns 0x00000000 (0000ms, 1150ms total)
T0F68 003:526 JLINK_ReadReg(FPS11)  returns 0x00000000 (0000ms, 1150ms total)
T0F68 003:526 JLINK_ReadReg(FPS12)  returns 0x00000000 (0000ms, 1150ms total)
T0F68 003:526 JLINK_ReadReg(FPS13)  returns 0x00000000 (0000ms, 1150ms total)
T0F68 003:526 JLINK_ReadReg(FPS14)  returns 0x00000000 (0000ms, 1150ms total)
T0F68 003:526 JLINK_ReadReg(FPS15)  returns 0x00000000 (0000ms, 1150ms total)
T0F68 003:526 JLINK_ReadReg(FPS16)  returns 0x00000000 (0000ms, 1150ms total)
T0B80 003:526 JLINK_ReadMem (0x40000424, 0x0004 Bytes, ...) -- CPU_ReadMem(4 bytes @ 0x40000424) -- Data:  00 00 00 00  returns 0x00 (0002ms, 1152ms total)
T0B80 003:531 JLINK_ReadMem (0x40020410, 0x0004 Bytes, ...) -- CPU_ReadMem(4 bytes @ 0x40020410) -- Data:  80 02 00 00  returns 0x00 (0008ms, 1160ms total)
T0B80 003:544 JLINK_ReadMem (0x40020010, 0x0004 Bytes, ...) -- CPU_ReadMem(4 bytes @ 0x40020010) -- Data:  00 00 00 A8  returns 0x00 (0004ms, 1164ms total)
T0B80 003:553 JLINK_ReadMem (0x20000358, 0x0004 Bytes, ...) -- CPU_ReadMem(4 bytes @ 0x20000358) -- Data:  00 00 00 00  returns 0x00 (0003ms, 1167ms total)
T0B80 003:556 JLINK_ReadMem (0x08001E20, 0x003C Bytes, ...) -- CPU_ReadMem(128 bytes @ 0x08001E00) -- Updating DA cache (128 bytes @ 0x08001E00) -- Read from DA cache (60 bytes @ 0x08001E20) -- Data:  1F B5 00 F0 E3 F8 FF F7 F1 FF 00 20 01 23 CD E9 ...  returns 0x00 (0005ms, 1172ms total)
T0F68 004:451 JLINK_Go() -- CPU_WriteMem(4 bytes @ 0xE0002008) (0030ms, 1202ms total)
T0F68 004:581 JLINK_IsHalted()  returns FALSE (0032ms, 1234ms total)
T0F68 004:714 JLINK_IsHalted()  returns FALSE (0033ms, 1235ms total)
T0F68 004:848 JLINK_IsHalted()  returns FALSE (0033ms, 1235ms total)
T0F68 004:983 JLINK_IsHalted()  returns FALSE (0033ms, 1235ms total)
T0F68 005:116 JLINK_ReadMemU32(0xE0001004, 0x0001 Items, ...) -- CPU is running -- CPU_ReadMem(4 bytes @ 0xE0001004) -- Data:  E5 4D 10 02  returns 0x01 (0007ms, 1209ms total)
T0B80 005:123 JLINK_ReadMem (0x40000424, 0x0004 Bytes, ...) -- CPU is running -- CPU_ReadMem(4 bytes @ 0x40000424) -- Data:  00 00 00 00  returns 0x00 (0003ms, 1212ms total)
T0B80 005:135 JLINK_ReadMem (0x40020410, 0x0004 Bytes, ...) -- CPU is running -- CPU_ReadMem(4 bytes @ 0x40020410) -- Data:  52 0F 00 00  returns 0x00 (0004ms, 1216ms total)
T0B80 005:150 JLINK_ReadMem (0x40020010, 0x0004 Bytes, ...) -- CPU is running -- CPU_ReadMem(4 bytes @ 0x40020010) -- Data:  01 80 00 00  returns 0x00 (0003ms, 1219ms total)
T0B80 005:166 JLINK_ReadMem (0x20000358, 0x0004 Bytes, ...) -- CPU is running -- CPU_ReadMem(4 bytes @ 0x20000358) -- Data:  00 00 00 00  returns 0x00 (0006ms, 1225ms total)
T0F68 005:172 JLINK_IsHalted()  returns FALSE (0004ms, 1229ms total)
T0F68 005:277 JLINK_IsHalted()  returns FALSE (0033ms, 1258ms total)
T0F68 005:410 JLINK_IsHalted()  returns FALSE (0018ms, 1243ms total)
T0F68 005:528 JLINK_IsHalted()  returns FALSE (0034ms, 1259ms total)
T0F68 005:663 JLINK_ReadMemU32(0xE0001004, 0x0001 Items, ...) -- CPU is running -- CPU_ReadMem(4 bytes @ 0xE0001004) -- Data:  E5 2F E6 03  returns 0x01 (0033ms, 1258ms total)
T0B80 005:697 JLINK_ReadMem (0x40000424, 0x0004 Bytes, ...) -- CPU is running -- CPU_ReadMem(4 bytes @ 0x40000424) -- Data:  00 00 00 00  returns 0x00 (0003ms, 1261ms total)
T0B80 005:700 JLINK_ReadMem (0x40020410, 0x0004 Bytes, ...) -- CPU is running -- CPU_ReadMem(4 bytes @ 0x40020410) -- Data:  52 0F 00 00  returns 0x00 (0004ms, 1265ms total)
T0B80 005:713 JLINK_ReadMem (0x40020010, 0x0004 Bytes, ...) -- CPU is running -- CPU_ReadMem(4 bytes @ 0x40020010) -- Data:  01 80 00 00  returns 0x00 (0005ms, 1270ms total)
T0B80 005:722 JLINK_ReadMem (0x20000358, 0x0004 Bytes, ...) -- CPU is running -- CPU_ReadMem(4 bytes @ 0x20000358) -- Data:  00 00 00 00  returns 0x00 (0003ms, 1273ms total)
T0F68 005:725 JLINK_IsHalted()  returns FALSE (0003ms, 1276ms total)
T0F68 005:828 JLINK_IsHalted()  returns FALSE (0032ms, 1305ms total)
T0F68 005:960 JLINK_IsHalted()  returns FALSE (0014ms, 1287ms total)
T0F68 006:074 JLINK_IsHalted()  returns FALSE (0003ms, 1276ms total)
T0F68 006:178 JLINK_ReadMemU32(0xE0001004, 0x0001 Items, ...) -- CPU is running -- CPU_ReadMem(4 bytes @ 0xE0001004) -- Data:  41 C8 89 05  returns 0x01 (0034ms, 1307ms total)
T0B80 006:215 JLINK_ReadMem (0x40000424, 0x0004 Bytes, ...) -- CPU is running -- CPU_ReadMem(4 bytes @ 0x40000424) -- Data:  00 00 00 00  returns 0x00 (0003ms, 1310ms total)
T0B80 006:218 JLINK_ReadMem (0x40020410, 0x0004 Bytes, ...) -- CPU is running -- CPU_ReadMem(4 bytes @ 0x40020410) -- Data:  52 0F 00 00  returns 0x00 (0004ms, 1314ms total)
T0B80 006:222 JLINK_ReadMem (0x40020010, 0x0004 Bytes, ...) -- CPU is running -- CPU_ReadMem(4 bytes @ 0x40020010) -- Data:  01 80 00 00  returns 0x00 (0004ms, 1318ms total)
T0B80 006:226 JLINK_ReadMem (0x20000358, 0x0004 Bytes, ...) -- CPU is running -- CPU_ReadMem(4 bytes @ 0x20000358) -- Data:  00 00 00 00  returns 0x00 (0005ms, 1323ms total)
T0F68 006:231 JLINK_IsHalted()  returns FALSE (0005ms, 1328ms total)
T0F68 006:336 JLINK_IsHalted()  returns FALSE (0032ms, 1355ms total)
T0F68 006:469 JLINK_IsHalted()  returns FALSE (0032ms, 1355ms total)
T0F68 006:602 JLINK_IsHalted()  returns FALSE (0036ms, 1359ms total)
T0F68 006:738 JLINK_ReadMemU32(0xE0001004, 0x0001 Items, ...) -- CPU is running -- CPU_ReadMem(4 bytes @ 0xE0001004) -- Data:  60 BD 56 07  returns 0x01 (0038ms, 1361ms total)
T0B80 006:776 JLINK_ReadMem (0x40000424, 0x0004 Bytes, ...) -- CPU is running -- CPU_ReadMem(4 bytes @ 0x40000424) -- Data:  00 00 00 00  returns 0x00 (0002ms, 1363ms total)
T0B80 006:778 JLINK_ReadMem (0x40020410, 0x0004 Bytes, ...) -- CPU is running -- CPU_ReadMem(4 bytes @ 0x40020410) -- Data:  52 0F 00 00  returns 0x00 (0001ms, 1364ms total)
T0B80 006:779 JLINK_ReadMem (0x40020010, 0x0004 Bytes, ...) -- CPU is running -- CPU_ReadMem(4 bytes @ 0x40020010) -- Data:  01 80 00 00  returns 0x00 (0003ms, 1367ms total)
T0B80 006:782 JLINK_ReadMem (0x20000358, 0x0004 Bytes, ...) -- CPU is running -- CPU_ReadMem(4 bytes @ 0x20000358) -- Data:  00 00 00 00  returns 0x00 (0001ms, 1368ms total)
T0F68 006:783 JLINK_IsHalted()  returns FALSE (0004ms, 1372ms total)
T0F68 006:888 JLINK_IsHalted()  returns FALSE (0010ms, 1378ms total)
T0F68 006:998 JLINK_IsHalted()  returns FALSE (0004ms, 1372ms total)
T0F68 007:103 JLINK_IsHalted()  returns FALSE (0006ms, 1374ms total)
T0F68 007:210 JLINK_IsHalted()  returns FALSE (0038ms, 1406ms total)
T0F68 007:349 JLINK_ReadMemU32(0xE0001004, 0x0001 Items, ...) -- CPU is running -- CPU_ReadMem(4 bytes @ 0xE0001004) -- Data:  74 AE 30 09  returns 0x01 (0003ms, 1371ms total)
T0B80 007:353 JLINK_ReadMem (0x40000424, 0x0004 Bytes, ...) -- CPU is running -- CPU_ReadMem(4 bytes @ 0x40000424) -- Data:  00 00 00 00  returns 0x00 (0004ms, 1375ms total)
T0B80 007:357 JLINK_ReadMem (0x40020410, 0x0004 Bytes, ...) -- CPU is running -- CPU_ReadMem(4 bytes @ 0x40020410) -- Data:  52 0F 00 00  returns 0x00 (0005ms, 1380ms total)
T0B80 007:362 JLINK_ReadMem (0x40020010, 0x0004 Bytes, ...) -- CPU is running -- CPU_ReadMem(4 bytes @ 0x40020010) -- Data:  01 80 00 00  returns 0x00 (0001ms, 1381ms total)
T0B80 007:363 JLINK_ReadMem (0x20000358, 0x0004 Bytes, ...) -- CPU is running -- CPU_ReadMem(4 bytes @ 0x20000358) -- Data:  00 00 00 00  returns 0x00 (0003ms, 1384ms total)
T0F68 007:366 JLINK_IsHalted()  returns FALSE (0003ms, 1387ms total)
T0F68 007:470 JLINK_IsHalted()  returns FALSE (0009ms, 1393ms total)
T0F68 007:579 JLINK_IsHalted()  returns FALSE (0034ms, 1418ms total)
T0F68 007:714 JLINK_IsHalted()  returns FALSE (0036ms, 1420ms total)
T0F68 007:851 JLINK_IsHalted()  returns FALSE (0003ms, 1387ms total)
T0F68 007:954 JLINK_ReadMemU32(0xE0001004, 0x0001 Items, ...) -- CPU is running -- CPU_ReadMem(4 bytes @ 0xE0001004) -- Data:  69 5B 21 0B  returns 0x01 (0003ms, 1387ms total)
T0B80 007:957 JLINK_ReadMem (0x40000424, 0x0004 Bytes, ...) -- CPU is running -- CPU_ReadMem(4 bytes @ 0x40000424) -- Data:  00 00 00 00  returns 0x00 (0002ms, 1389ms total)
T0B80 007:959 JLINK_ReadMem (0x40020410, 0x0004 Bytes, ...) -- CPU is running -- CPU_ReadMem(4 bytes @ 0x40020410) -- Data:  52 0F 00 00  returns 0x00 (0003ms, 1392ms total)
T0B80 007:962 JLINK_ReadMem (0x40020010, 0x0004 Bytes, ...) -- CPU is running -- CPU_ReadMem(4 bytes @ 0x40020010) -- Data:  01 80 00 00  returns 0x00 (0003ms, 1395ms total)
T0B80 007:965 JLINK_ReadMem (0x20000358, 0x0004 Bytes, ...) -- CPU is running -- CPU_ReadMem(4 bytes @ 0x20000358) -- Data:  00 00 00 00  returns 0x00 (0003ms, 1398ms total)
T0F68 007:968 JLINK_IsHalted()  returns FALSE (0003ms, 1401ms total)
T0F68 008:071 JLINK_IsHalted()  returns FALSE (0009ms, 1407ms total)
T0F68 008:181 JLINK_IsHalted()  returns FALSE (0002ms, 1400ms total)
T0F68 008:283 JLINK_IsHalted()  returns FALSE (0034ms, 1432ms total)
T0F68 008:417 JLINK_IsHalted()  returns FALSE (0002ms, 1400ms total)
T0F68 008:520 JLINK_ReadMemU32(0xE0001004, 0x0001 Items, ...) -- CPU is running -- CPU_ReadMem(4 bytes @ 0xE0001004) -- Data:  1C 9B FC 0C  returns 0x01 (0004ms, 1402ms total)
T0B80 008:524 JLINK_ReadMem (0x40000424, 0x0004 Bytes, ...) -- CPU is running -- CPU_ReadMem(4 bytes @ 0x40000424) -- Data:  00 00 00 00  returns 0x00 (0002ms, 1404ms total)
T0B80 008:526 JLINK_ReadMem (0x40020410, 0x0004 Bytes, ...) -- CPU is running -- CPU_ReadMem(4 bytes @ 0x40020410) -- Data:  52 0F 00 00  returns 0x00 (0002ms, 1406ms total)
T0B80 008:528 JLINK_ReadMem (0x40020010, 0x0004 Bytes, ...) -- CPU is running -- CPU_ReadMem(4 bytes @ 0x40020010) -- Data:  01 80 00 00  returns 0x00 (0001ms, 1407ms total)
T0B80 008:529 JLINK_ReadMem (0x20000358, 0x0004 Bytes, ...) -- CPU is running -- CPU_ReadMem(4 bytes @ 0x20000358) -- Data:  00 00 00 00  returns 0x00 (0002ms, 1409ms total)
T0F68 008:531 JLINK_IsHalted()  returns FALSE (0005ms, 1414ms total)
T0F68 008:637 JLINK_IsHalted()  returns FALSE (0007ms, 1416ms total)
T0F68 008:744 JLINK_IsHalted()  returns FALSE (0013ms, 1422ms total)
T0F68 008:858 JLINK_IsHalted()  returns FALSE (0033ms, 1442ms total)
T0F68 008:992 JLINK_IsHalted()  returns FALSE (0033ms, 1442ms total)
T0F68 009:125 JLINK_ReadMemU32(0xE0001004, 0x0001 Items, ...) -- CPU is running -- CPU_ReadMem(4 bytes @ 0xE0001004) -- Data:  60 56 EA 0E  returns 0x01 (0006ms, 1415ms total)
T0B80 009:131 JLINK_ReadMem (0x40000424, 0x0004 Bytes, ...) -- CPU is running -- CPU_ReadMem(4 bytes @ 0x40000424) -- Data:  00 00 00 00  returns 0x00 (0004ms, 1419ms total)
T0B80 009:135 JLINK_ReadMem (0x40020410, 0x0004 Bytes, ...) -- CPU is running -- CPU_ReadMem(4 bytes @ 0x40020410) -- Data:  52 0F 00 00  returns 0x00 (0004ms, 1423ms total)
T0B80 009:139 JLINK_ReadMem (0x40020010, 0x0004 Bytes, ...) -- CPU is running -- CPU_ReadMem(4 bytes @ 0x40020010) -- Data:  01 80 00 00  returns 0x00 (0003ms, 1426ms total)
T0B80 009:142 JLINK_ReadMem (0x20000358, 0x0004 Bytes, ...) -- CPU is running -- CPU_ReadMem(4 bytes @ 0x20000358) -- Data:  00 00 00 00  returns 0x00 (0003ms, 1429ms total)
T0F68 009:145 JLINK_IsHalted()  returns FALSE (0006ms, 1435ms total)
T0F68 009:251 JLINK_IsHalted()  returns FALSE (0007ms, 1436ms total)
T0F68 009:359 JLINK_IsHalted()  returns FALSE (0029ms, 1458ms total)
T0F68 009:489 JLINK_IsHalted()  returns FALSE (0032ms, 1461ms total)
T0F68 009:621 JLINK_IsHalted()  returns FALSE (0032ms, 1461ms total)
T0F68 009:754 JLINK_ReadMemU32(0xE0001004, 0x0001 Items, ...) -- CPU is running -- CPU_ReadMem(4 bytes @ 0xE0001004) -- Data:  40 71 08 11  returns 0x01 (0037ms, 1466ms total)
T0B80 009:791 JLINK_ReadMem (0x40000424, 0x0004 Bytes, ...) -- CPU is running -- CPU_ReadMem(4 bytes @ 0x40000424) -- Data:  00 00 00 00  returns 0x00 (0004ms, 1470ms total)
T0B80 009:795 JLINK_ReadMem (0x40020410, 0x0004 Bytes, ...) -- CPU is running -- CPU_ReadMem(4 bytes @ 0x40020410) -- Data:  52 0F 00 00  returns 0x00 (0003ms, 1473ms total)
T0B80 009:798 JLINK_ReadMem (0x40020010, 0x0004 Bytes, ...) -- CPU is running -- CPU_ReadMem(4 bytes @ 0x40020010) -- Data:  01 80 00 00  returns 0x00 (0005ms, 1478ms total)
T0B80 009:803 JLINK_ReadMem (0x20000358, 0x0004 Bytes, ...) -- CPU is running -- CPU_ReadMem(4 bytes @ 0x20000358) -- Data:  00 00 00 00  returns 0x00 (0002ms, 1480ms total)
T0F68 009:805 JLINK_IsHalted()  returns FALSE (0002ms, 1482ms total)
T0F68 009:907 JLINK_IsHalted()  returns FALSE (0017ms, 1497ms total)
T0F68 010:025 JLINK_IsHalted()  returns FALSE (0030ms, 1510ms total)
T0F68 010:156 JLINK_IsHalted()  returns FALSE (0029ms, 1509ms total)
T0F68 010:285 JLINK_ReadMemU32(0xE0001004, 0x0001 Items, ...) -- CPU is running -- CPU_ReadMem(4 bytes @ 0xE0001004) -- Data:  93 49 A4 12  returns 0x01 (0003ms, 1483ms total)
T0B80 010:288 JLINK_ReadMem (0x40000424, 0x0004 Bytes, ...) -- CPU is running -- CPU_ReadMem(4 bytes @ 0x40000424) -- Data:  00 00 00 00  returns 0x00 (0003ms, 1486ms total)
T0B80 010:291 JLINK_ReadMem (0x40020410, 0x0004 Bytes, ...) -- CPU is running -- CPU_ReadMem(4 bytes @ 0x40020410) -- Data:  51 0F 00 00  returns 0x00 (0004ms, 1490ms total)
T0B80 010:303 JLINK_ReadMem (0x40020010, 0x0004 Bytes, ...) -- CPU is running -- CPU_ReadMem(4 bytes @ 0x40020010) -- Data:  01 80 00 00  returns 0x00 (0007ms, 1497ms total)
T0B80 010:310 JLINK_ReadMem (0x20000358, 0x0004 Bytes, ...) -- CPU is running -- CPU_ReadMem(4 bytes @ 0x20000358) -- Data:  00 00 00 00  returns 0x00 (0001ms, 1498ms total)
T0F68 010:311 JLINK_IsHalted()  returns FALSE (0003ms, 1501ms total)
T0F68 010:414 JLINK_IsHalted()  returns FALSE (0034ms, 1532ms total)
T0F68 010:550 JLINK_IsHalted()  returns FALSE (0034ms, 1532ms total)
T0F68 010:685 JLINK_IsHalted()  returns FALSE (0035ms, 1533ms total)
T0F68 010:820 JLINK_ReadMemU32(0xE0001004, 0x0001 Items, ...) -- CPU is running -- CPU_ReadMem(4 bytes @ 0xE0001004) -- Data:  2A 31 71 14  returns 0x01 (0033ms, 1531ms total)
T0B80 010:854 JLINK_ReadMem (0x40000424, 0x0004 Bytes, ...) -- CPU is running -- CPU_ReadMem(4 bytes @ 0x40000424) -- Data:  00 00 00 00  returns 0x00 (0005ms, 1536ms total)
T0B80 010:859 JLINK_ReadMem (0x40020410, 0x0004 Bytes, ...) -- CPU is running -- CPU_ReadMem(4 bytes @ 0x40020410) -- Data:  50 0F 00 00  returns 0x00 (0001ms, 1537ms total)
T0B80 010:871 JLINK_ReadMem (0x40020010, 0x0004 Bytes, ...) -- CPU is running -- CPU_ReadMem(4 bytes @ 0x40020010) -- Data:  02 80 00 00  returns 0x00 (0005ms, 1542ms total)
T0B80 010:877 JLINK_ReadMem (0x20000358, 0x0004 Bytes, ...) -- CPU is running -- CPU_ReadMem(4 bytes @ 0x20000358) -- Data:  00 00 00 00  returns 0x00 (0007ms, 1549ms total)
T0F68 010:884 JLINK_IsHalted()  returns FALSE (0004ms, 1553ms total)
T0F68 010:989 JLINK_IsHalted()  returns FALSE (0031ms, 1580ms total)
T0F68 011:120 JLINK_IsHalted()  returns FALSE (0033ms, 1582ms total)
T0F68 011:253 JLINK_IsHalted()  returns FALSE (0034ms, 1583ms total)
T0F68 011:388 JLINK_ReadMemU32(0xE0001004, 0x0001 Items, ...) -- CPU is running -- CPU_ReadMem(4 bytes @ 0xE0001004) -- Data:  C4 F0 38 16  returns 0x01 (0011ms, 1560ms total)
T0B80 011:400 JLINK_ReadMem (0x40000424, 0x0004 Bytes, ...) -- CPU is running -- CPU_ReadMem(4 bytes @ 0x40000424) -- Data:  00 00 00 00  returns 0x00 (0003ms, 1563ms total)
T0B80 011:403 JLINK_ReadMem (0x40020410, 0x0004 Bytes, ...) -- CPU is running -- CPU_ReadMem(4 bytes @ 0x40020410) -- Data:  53 0F 00 00  returns 0x00 (0002ms, 1565ms total)
T0B80 011:421 JLINK_ReadMem (0x40020010, 0x0004 Bytes, ...) -- CPU is running -- CPU_ReadMem(4 bytes @ 0x40020010) -- Data:  04 80 00 00  returns 0x00 (0003ms, 1568ms total)
T0B80 011:435 JLINK_ReadMem (0x20000358, 0x0004 Bytes, ...) -- CPU is running -- CPU_ReadMem(4 bytes @ 0x20000358) -- Data:  00 00 00 00  returns 0x00 (0005ms, 1573ms total)
T0F68 011:441 JLINK_IsHalted()  returns FALSE (0002ms, 1575ms total)
T0F68 011:543 JLINK_IsHalted()  returns FALSE (0033ms, 1606ms total)
T0F68 011:678 JLINK_IsHalted()  returns FALSE (0033ms, 1606ms total)
T0F68 011:812 JLINK_IsHalted()  returns FALSE (0034ms, 1607ms total)
T0F68 011:946 JLINK_ReadMemU32(0xE0001004, 0x0001 Items, ...) -- CPU is running -- CPU_ReadMem(4 bytes @ 0xE0001004) -- Data:  5A F6 16 18  returns 0x01 (0037ms, 1610ms total)
T0B80 011:983 JLINK_ReadMem (0x40000424, 0x0004 Bytes, ...) -- CPU is running -- CPU_ReadMem(4 bytes @ 0x40000424) -- Data:  00 00 00 00  returns 0x00 (0003ms, 1613ms total)
T0B80 011:986 JLINK_ReadMem (0x40020410, 0x0004 Bytes, ...) -- CPU is running -- CPU_ReadMem(4 bytes @ 0x40020410) -- Data:  53 0F 00 00  returns 0x00 (0004ms, 1617ms total)
T0B80 011:993 JLINK_ReadMem (0x40020010, 0x0004 Bytes, ...) -- CPU is running -- CPU_ReadMem(4 bytes @ 0x40020010) -- Data:  04 80 00 00  returns 0x00 (0007ms, 1624ms total)
T0B80 012:007 JLINK_ReadMem (0x20000358, 0x0004 Bytes, ...) -- CPU is running -- CPU_ReadMem(4 bytes @ 0x20000358) -- Data:  00 00 00 00  returns 0x00 (0005ms, 1629ms total)
T0F68 012:012 JLINK_IsHalted()  returns FALSE (0002ms, 1631ms total)
T0F68 012:114 JLINK_IsHalted()  returns FALSE (0007ms, 1636ms total)
T0F68 012:222 JLINK_IsHalted()  returns FALSE (0034ms, 1663ms total)
T0F68 012:357 JLINK_IsHalted()  returns FALSE (0030ms, 1659ms total)
T0F68 012:487 JLINK_ReadMemU32(0xE0001004, 0x0001 Items, ...) -- CPU is running -- CPU_ReadMem(4 bytes @ 0xE0001004) -- Data:  6A 30 C0 19  returns 0x01 (0015ms, 1644ms total)
T0B80 012:502 JLINK_ReadMem (0x40000424, 0x0004 Bytes, ...) -- CPU is running -- CPU_ReadMem(4 bytes @ 0x40000424) -- Data:  00 00 00 00  returns 0x00 (0003ms, 1647ms total)
T0B80 012:505 JLINK_ReadMem (0x40020410, 0x0004 Bytes, ...) -- CPU is running -- CPU_ReadMem(4 bytes @ 0x40020410) -- Data:  50 0F 00 00  returns 0x00 (0002ms, 1649ms total)
T0B80 012:517 JLINK_ReadMem (0x40020010, 0x0004 Bytes, ...) -- CPU is running -- CPU_ReadMem(4 bytes @ 0x40020010) -- Data:  01 80 00 00  returns 0x00 (0004ms, 1653ms total)
T0B80 012:521 JLINK_ReadMem (0x20000358, 0x0004 Bytes, ...) -- CPU is running -- CPU_ReadMem(4 bytes @ 0x20000358) -- Data:  00 00 00 00  returns 0x00 (0006ms, 1659ms total)
T0F68 012:528 JLINK_IsHalted()  returns FALSE (0002ms, 1661ms total)
T0F68 012:631 JLINK_IsHalted()  returns FALSE (0033ms, 1692ms total)
T0F68 012:765 JLINK_IsHalted()  returns FALSE (0034ms, 1693ms total)
T0F68 012:900 JLINK_IsHalted()  returns FALSE (0035ms, 1694ms total)
T0F68 013:035 JLINK_ReadMemU32(0xE0001004, 0x0001 Items, ...) -- CPU is running -- CPU_ReadMem(4 bytes @ 0xE0001004) -- Data:  FE C8 97 1B  returns 0x01 (0035ms, 1694ms total)
T0B80 013:070 JLINK_ReadMem (0x40000424, 0x0004 Bytes, ...) -- CPU is running -- CPU_ReadMem(4 bytes @ 0x40000424) -- Data:  00 00 00 00  returns 0x00 (0003ms, 1697ms total)
T0B80 013:073 JLINK_ReadMem (0x40020410, 0x0004 Bytes, ...) -- CPU is running -- CPU_ReadMem(4 bytes @ 0x40020410) -- Data:  51 0F 00 00  returns 0x00 (0004ms, 1701ms total)
T0B80 013:090 JLINK_ReadMem (0x40020010, 0x0004 Bytes, ...) -- CPU is running -- CPU_ReadMem(4 bytes @ 0x40020010) -- Data:  02 80 00 00  returns 0x00 (0005ms, 1706ms total)
T0B80 013:105 JLINK_ReadMem (0x20000358, 0x0004 Bytes, ...) -- CPU is running -- CPU_ReadMem(4 bytes @ 0x20000358) -- Data:  00 00 00 00  returns 0x00 (0003ms, 1709ms total)
T0F68 013:108 JLINK_IsHalted()  returns FALSE (0003ms, 1712ms total)
T0F68 013:211 JLINK_IsHalted()  returns FALSE (0032ms, 1741ms total)
T0F68 013:344 JLINK_IsHalted()  returns FALSE (0032ms, 1741ms total)
T0F68 013:477 JLINK_IsHalted()  returns FALSE (0006ms, 1715ms total)
T0F68 013:583 JLINK_ReadMemU32(0xE0001004, 0x0001 Items, ...) -- CPU is running -- CPU_ReadMem(4 bytes @ 0xE0001004) -- Data:  AB B6 5D 1D  returns 0x01 (0036ms, 1745ms total)
T0B80 013:619 JLINK_ReadMem (0x40000424, 0x0004 Bytes, ...) -- CPU is running -- CPU_ReadMem(4 bytes @ 0x40000424) -- Data:  00 00 00 00  returns 0x00 (0005ms, 1750ms total)
T0B80 013:624 JLINK_ReadMem (0x40020410, 0x0004 Bytes, ...) -- CPU is running -- CPU_ReadMem(4 bytes @ 0x40020410) -- Data:  50 0F 00 00  returns 0x00 (0003ms, 1753ms total)
T0B80 013:638 JLINK_ReadMem (0x40020010, 0x0004 Bytes, ...) -- CPU is running -- CPU_ReadMem(4 bytes @ 0x40020010) -- Data:  06 80 00 00  returns 0x00 (0004ms, 1757ms total)
T0B80 013:654 JLINK_ReadMem (0x20000358, 0x0004 Bytes, ...) -- CPU is running -- CPU_ReadMem(4 bytes @ 0x20000358) -- Data:  00 00 00 00  returns 0x00 (0004ms, 1761ms total)
T0F68 013:658 JLINK_IsHalted()  returns FALSE (0003ms, 1764ms total)
T0F68 013:762 JLINK_IsHalted()  returns FALSE (0033ms, 1794ms total)
T0F68 013:896 JLINK_IsHalted()  returns FALSE (0033ms, 1794ms total)
T0F68 014:029 JLINK_IsHalted()  returns FALSE (0028ms, 1789ms total)
T0F68 014:157 JLINK_ReadMemU32(0xE0001004, 0x0001 Items, ...) -- CPU is running -- CPU_ReadMem(4 bytes @ 0xE0001004) -- Data:  4F AF 3B 1F  returns 0x01 (0037ms, 1798ms total)
T0B80 014:194 JLINK_ReadMem (0x40000424, 0x0004 Bytes, ...) -- CPU is running -- CPU_ReadMem(4 bytes @ 0x40000424) -- Data:  00 00 00 00  returns 0x00 (0003ms, 1801ms total)
T0B80 014:197 JLINK_ReadMem (0x40020410, 0x0004 Bytes, ...) -- CPU is running -- CPU_ReadMem(4 bytes @ 0x40020410) -- Data:  52 0F 00 00  returns 0x00 (0004ms, 1805ms total)
T0B80 014:216 JLINK_ReadMem (0x40020010, 0x0004 Bytes, ...) -- CPU is running -- CPU_ReadMem(4 bytes @ 0x40020010) -- Data:  05 80 00 00  returns 0x00 (0004ms, 1809ms total)
T0B80 014:228 JLINK_ReadMem (0x20000358, 0x0004 Bytes, ...) -- CPU is running -- CPU_ReadMem(4 bytes @ 0x20000358) -- Data:  00 00 00 00  returns 0x00 (0004ms, 1813ms total)
T0F68 014:232 JLINK_IsHalted()  returns FALSE (0002ms, 1815ms total)
T0F68 014:334 JLINK_IsHalted()  returns FALSE (0032ms, 1845ms total)
T0F68 014:478 JLINK_IsHalted()  returns FALSE (0004ms, 1817ms total)
T0F68 014:582 JLINK_IsHalted()  returns FALSE (0035ms, 1848ms total)
T0F68 014:718 JLINK_ReadMemU32(0xE0001004, 0x0001 Items, ...) -- CPU is running -- CPU_ReadMem(4 bytes @ 0xE0001004) -- Data:  9F FB 08 21  returns 0x01 (0031ms, 1844ms total)
T0B80 014:749 JLINK_ReadMem (0x40000424, 0x0004 Bytes, ...) -- CPU is running -- CPU_ReadMem(4 bytes @ 0x40000424) -- Data:  00 00 00 00  returns 0x00 (0005ms, 1849ms total)
T0B80 014:754 JLINK_ReadMem (0x40020410, 0x0004 Bytes, ...) -- CPU is running -- CPU_ReadMem(4 bytes @ 0x40020410) -- Data:  52 0F 00 00  returns 0x00 (0006ms, 1855ms total)
T0B80 014:764 JLINK_ReadMem (0x40020010, 0x0004 Bytes, ...) -- CPU is running -- CPU_ReadMem(4 bytes @ 0x40020010) -- Data:  01 80 00 00  returns 0x00 (0004ms, 1859ms total)
T0B80 014:779 JLINK_ReadMem (0x20000358, 0x0004 Bytes, ...) -- CPU is running -- CPU_ReadMem(4 bytes @ 0x20000358) -- Data:  00 00 00 00  returns 0x00 (0005ms, 1864ms total)
T0F68 014:784 JLINK_IsHalted()  returns FALSE (0004ms, 1868ms total)
T0F68 014:889 JLINK_IsHalted()  returns FALSE (0032ms, 1896ms total)
T0F68 015:022 JLINK_IsHalted()  returns FALSE (0030ms, 1894ms total)
T0F68 015:153 JLINK_IsHalted()  returns FALSE (0006ms, 1870ms total)
T0F68 015:260 JLINK_ReadMemU32(0xE0001004, 0x0001 Items, ...) -- CPU is running -- CPU_ReadMem(4 bytes @ 0xE0001004) -- Data:  BD 15 D3 22  returns 0x01 (0040ms, 1904ms total)
T0B80 015:300 JLINK_ReadMem (0x40000424, 0x0004 Bytes, ...) -- CPU is running -- CPU_ReadMem(4 bytes @ 0x40000424) -- Data:  00 00 00 00  returns 0x00 (0003ms, 1907ms total)
T0B80 015:303 JLINK_ReadMem (0x40020410, 0x0004 Bytes, ...) -- CPU is running -- CPU_ReadMem(4 bytes @ 0x40020410) -- Data:  52 0F 00 00  returns 0x00 (0002ms, 1909ms total)
T0B80 015:305 JLINK_ReadMem (0x40020010, 0x0004 Bytes, ...) -- CPU is running -- CPU_ReadMem(4 bytes @ 0x40020010) -- Data:  01 80 00 00  returns 0x00 (0002ms, 1911ms total)
T0B80 015:311 JLINK_ReadMem (0x20000358, 0x0004 Bytes, ...) -- CPU is running -- CPU_ReadMem(4 bytes @ 0x20000358) -- Data:  00 00 00 00  returns 0x00 (0002ms, 1913ms total)
T0F68 015:313 JLINK_IsHalted()  returns FALSE (0004ms, 1917ms total)
T0F68 015:417 JLINK_IsHalted()  returns FALSE (0040ms, 1953ms total)
T0F68 015:558 JLINK_IsHalted()  returns FALSE (0004ms, 1917ms total)
T0F68 015:662 JLINK_IsHalted()  returns FALSE (0034ms, 1947ms total)
T0F68 015:797 JLINK_ReadMemU32(0xE0001004, 0x0001 Items, ...) -- CPU is running -- CPU_ReadMem(4 bytes @ 0xE0001004) -- Data:  F7 BF 88 24  returns 0x01 (0033ms, 1946ms total)
T0B80 015:830 JLINK_ReadMem (0x40000424, 0x0004 Bytes, ...) -- CPU is running -- CPU_ReadMem(4 bytes @ 0x40000424) -- Data:  00 00 00 00  returns 0x00 (0006ms, 1952ms total)
T0B80 015:836 JLINK_ReadMem (0x40020410, 0x0004 Bytes, ...) -- CPU is running -- CPU_ReadMem(4 bytes @ 0x40020410) -- Data:  52 0F 00 00  returns 0x00 (0004ms, 1956ms total)
T0B80 015:840 JLINK_ReadMem (0x40020010, 0x0004 Bytes, ...) -- CPU is running -- CPU_ReadMem(4 bytes @ 0x40020010) -- Data:  01 80 00 00  returns 0x00 (0004ms, 1960ms total)
T0B80 015:844 JLINK_ReadMem (0x20000358, 0x0004 Bytes, ...) -- CPU is running -- CPU_ReadMem(4 bytes @ 0x20000358) -- Data:  00 00 00 00  returns 0x00 (0004ms, 1964ms total)
T0F68 015:848 JLINK_IsHalted()  returns FALSE (0003ms, 1967ms total)
T0F68 015:951 JLINK_IsHalted()  returns FALSE (0006ms, 1970ms total)
T0F68 016:058 JLINK_IsHalted()  returns FALSE (0003ms, 1967ms total)
T0F68 016:161 JLINK_IsHalted()  returns FALSE (0005ms, 1969ms total)
T0F68 016:268 JLINK_IsHalted()  returns FALSE (0008ms, 1972ms total)
T0F68 016:376 JLINK_ReadMemU32(0xE0001004, 0x0001 Items, ...) -- CPU is running -- CPU_ReadMem(4 bytes @ 0xE0001004) -- Data:  1E A4 4E 26  returns 0x01 (0004ms, 1968ms total)
T0B80 016:381 JLINK_ReadMem (0x40000424, 0x0004 Bytes, ...) -- CPU is running -- CPU_ReadMem(4 bytes @ 0x40000424) -- Data:  00 00 00 00  returns 0x00 (0002ms, 1970ms total)
T0B80 016:383 JLINK_ReadMem (0x40020410, 0x0004 Bytes, ...) -- CPU is running -- CPU_ReadMem(4 bytes @ 0x40020410) -- Data:  52 0F 00 00  returns 0x00 (0002ms, 1972ms total)
T0B80 016:385 JLINK_ReadMem (0x40020010, 0x0004 Bytes, ...) -- CPU is running -- CPU_ReadMem(4 bytes @ 0x40020010) -- Data:  01 80 00 00  returns 0x00 (0004ms, 1976ms total)
T0B80 016:389 JLINK_ReadMem (0x20000358, 0x0004 Bytes, ...) -- CPU is running -- CPU_ReadMem(4 bytes @ 0x20000358) -- Data:  00 00 00 00  returns 0x00 (0002ms, 1978ms total)
T0F68 016:391 JLINK_IsHalted()  returns FALSE (0003ms, 1981ms total)
T0F68 016:494 JLINK_IsHalted()  returns FALSE (0011ms, 1989ms total)
T0F68 016:606 JLINK_IsHalted()  returns FALSE (0003ms, 1981ms total)
T0F68 016:709 JLINK_IsHalted()  returns FALSE (0033ms, 2011ms total)
T0F68 016:844 JLINK_IsHalted()  returns FALSE (0002ms, 1980ms total)
T0F68 016:948 JLINK_ReadMemU32(0xE0001004, 0x0001 Items, ...) -- CPU is running -- CPU_ReadMem(4 bytes @ 0xE0001004) -- Data:  79 FC 2A 28  returns 0x01 (0005ms, 1983ms total)
T0B80 016:953 JLINK_ReadMem (0x40000424, 0x0004 Bytes, ...) -- CPU is running -- CPU_ReadMem(4 bytes @ 0x40000424) -- Data:  00 00 00 00  returns 0x00 (0004ms, 1987ms total)
T0B80 016:957 JLINK_ReadMem (0x40020410, 0x0004 Bytes, ...) -- CPU is running -- CPU_ReadMem(4 bytes @ 0x40020410) -- Data:  52 0F 00 00  returns 0x00 (0004ms, 1991ms total)
T0B80 016:961 JLINK_ReadMem (0x40020010, 0x0004 Bytes, ...) -- CPU is running -- CPU_ReadMem(4 bytes @ 0x40020010) -- Data:  01 80 00 00  returns 0x00 (0003ms, 1994ms total)
T0B80 016:965 JLINK_ReadMem (0x20000358, 0x0004 Bytes, ...) -- CPU is running -- CPU_ReadMem(4 bytes @ 0x20000358) -- Data:  00 00 00 00  returns 0x00 (0003ms, 1997ms total)
T0F68 016:968 JLINK_IsHalted()  returns FALSE (0009ms, 2006ms total)
T0F68 017:077 JLINK_IsHalted()  returns FALSE (0003ms, 2000ms total)
T0F68 017:181 JLINK_IsHalted()  returns FALSE (0005ms, 2002ms total)
T0F68 017:286 JLINK_IsHalted()  returns FALSE (0035ms, 2032ms total)
T0F68 017:422 JLINK_IsHalted()  returns FALSE (0033ms, 2030ms total)
T0F68 017:556 JLINK_ReadMemU32(0xE0001004, 0x0001 Items, ...) -- CPU is running -- CPU_ReadMem(4 bytes @ 0xE0001004) -- Data:  CD CE 38 2A  returns 0x01 (0033ms, 2030ms total)
T0B80 017:590 JLINK_ReadMem (0x40000424, 0x0004 Bytes, ...) -- CPU is running -- CPU_ReadMem(4 bytes @ 0x40000424) -- Data:  00 00 00 00  returns 0x00 (0005ms, 2035ms total)
T0B80 017:595 JLINK_ReadMem (0x40020410, 0x0004 Bytes, ...) -- CPU is running -- CPU_ReadMem(4 bytes @ 0x40020410) -- Data:  52 0F 00 00  returns 0x00 (0008ms, 2043ms total)
T0B80 017:603 JLINK_ReadMem (0x40020010, 0x0004 Bytes, ...) -- CPU is running -- CPU_ReadMem(4 bytes @ 0x40020010) -- Data:  01 80 00 00  returns 0x00 (0002ms, 2045ms total)
T0B80 017:605 JLINK_ReadMem (0x20000358, 0x0004 Bytes, ...) -- CPU is running -- CPU_ReadMem(4 bytes @ 0x20000358) -- Data:  00 00 00 00  returns 0x00 (0002ms, 2047ms total)
T0F68 017:607 JLINK_IsHalted()  returns FALSE (0002ms, 2049ms total)
T0F68 017:710 JLINK_IsHalted()  returns FALSE (0005ms, 2052ms total)
T0F68 017:816 JLINK_IsHalted()  returns FALSE (0007ms, 2054ms total)
T0F68 017:925 JLINK_IsHalted()  returns FALSE (0006ms, 2053ms total)
T0F68 018:031 JLINK_IsHalted()  returns FALSE (0032ms, 2079ms total)
T0F68 018:163 JLINK_ReadMemU32(0xE0001004, 0x0001 Items, ...) -- CPU is running -- CPU_ReadMem(4 bytes @ 0xE0001004) -- Data:  0D 61 2C 2C  returns 0x01 (0009ms, 2056ms total)
T0B80 018:173 JLINK_ReadMem (0x40000424, 0x0004 Bytes, ...) -- CPU is running -- CPU_ReadMem(4 bytes @ 0x40000424) -- Data:  00 00 00 00  returns 0x00 (0002ms, 2058ms total)
T0B80 018:175 JLINK_ReadMem (0x40020410, 0x0004 Bytes, ...) -- CPU is running -- CPU_ReadMem(4 bytes @ 0x40020410) -- Data:  52 0F 00 00  returns 0x00 (0002ms, 2060ms total)
T0B80 018:177 JLINK_ReadMem (0x40020010, 0x0004 Bytes, ...) -- CPU is running -- CPU_ReadMem(4 bytes @ 0x40020010) -- Data:  01 80 00 00  returns 0x00 (0003ms, 2063ms total)
T0B80 018:180 JLINK_ReadMem (0x20000358, 0x0004 Bytes, ...) -- CPU is running -- CPU_ReadMem(4 bytes @ 0x20000358) -- Data:  00 00 00 00  returns 0x00 (0002ms, 2065ms total)
T0F68 018:182 JLINK_IsHalted()  returns FALSE (0004ms, 2069ms total)
T0F68 018:286 JLINK_IsHalted()  returns FALSE (0035ms, 2100ms total)
T0F68 018:422 JLINK_IsHalted()  returns FALSE (0032ms, 2097ms total)
T0F68 018:555 JLINK_IsHalted()  returns FALSE (0034ms, 2099ms total)
T0F68 018:690 JLINK_ReadMemU32(0xE0001004, 0x0001 Items, ...) -- CPU is running -- CPU_ReadMem(4 bytes @ 0xE0001004) -- Data:  29 25 DF 2D  returns 0x01 (0005ms, 2070ms total)
T0B80 018:695 JLINK_ReadMem (0x40000424, 0x0004 Bytes, ...) -- CPU is running -- CPU_ReadMem(4 bytes @ 0x40000424) -- Data:  00 00 00 00  returns 0x00 (0005ms, 2075ms total)
T0B80 018:700 JLINK_ReadMem (0x40020410, 0x0004 Bytes, ...) -- CPU is running -- CPU_ReadMem(4 bytes @ 0x40020410) -- Data:  52 0F 00 00  returns 0x00 (0004ms, 2079ms total)
T0B80 018:704 JLINK_ReadMem (0x40020010, 0x0004 Bytes, ...) -- CPU is running -- CPU_ReadMem(4 bytes @ 0x40020010) -- Data:  01 80 00 00  returns 0x00 (0004ms, 2083ms total)
T0B80 018:708 JLINK_ReadMem (0x20000358, 0x0004 Bytes, ...) -- CPU is running -- CPU_ReadMem(4 bytes @ 0x20000358) -- Data:  00 00 00 00  returns 0x00 (0003ms, 2086ms total)
T0F68 018:711 JLINK_IsHalted()  returns FALSE (0004ms, 2090ms total)
T0F68 018:816 JLINK_IsHalted()  returns FALSE (0035ms, 2121ms total)
T0F68 018:951 JLINK_IsHalted()  returns FALSE (0033ms, 2119ms total)
T0F68 019:084 JLINK_IsHalted()  returns FALSE (0033ms, 2119ms total)
T0F68 019:218 JLINK_ReadMemU32(0xE0001004, 0x0001 Items, ...) -- CPU is running -- CPU_ReadMem(4 bytes @ 0xE0001004) -- Data:  E6 B1 A9 2F  returns 0x01 (0032ms, 2118ms total)
T0B80 019:250 JLINK_ReadMem (0x40000424, 0x0004 Bytes, ...) -- CPU is running -- CPU_ReadMem(4 bytes @ 0x40000424) -- Data:  00 00 00 00  returns 0x00 (0002ms, 2120ms total)
T0B80 019:252 JLINK_ReadMem (0x40020410, 0x0004 Bytes, ...) -- CPU is running -- CPU_ReadMem(4 bytes @ 0x40020410) -- Data:  52 0F 00 00  returns 0x00 (0002ms, 2122ms total)
T0B80 019:254 JLINK_ReadMem (0x40020010, 0x0004 Bytes, ...) -- CPU is running -- CPU_ReadMem(4 bytes @ 0x40020010) -- Data:  01 80 00 00  returns 0x00 (0002ms, 2124ms total)
T0B80 019:256 JLINK_ReadMem (0x20000358, 0x0004 Bytes, ...) -- CPU is running -- CPU_ReadMem(4 bytes @ 0x20000358) -- Data:  00 00 00 00  returns 0x00 (0002ms, 2126ms total)
T0F68 019:259 JLINK_IsHalted()  returns FALSE (0001ms, 2127ms total)
T0F68 019:361 JLINK_IsHalted()  returns FALSE (0033ms, 2159ms total)
T0F68 019:494 JLINK_IsHalted()  returns FALSE (0038ms, 2164ms total)
T0F68 019:633 JLINK_IsHalted()  returns FALSE (0033ms, 2159ms total)
T0F68 019:767 JLINK_ReadMemU32(0xE0001004, 0x0001 Items, ...) -- CPU is running -- CPU_ReadMem(4 bytes @ 0xE0001004) -- Data:  BF 95 60 31  returns 0x01 (0018ms, 2144ms total)
T0B80 019:787 JLINK_ReadMem (0x40000424, 0x0004 Bytes, ...) -- CPU is running -- CPU_ReadMem(4 bytes @ 0x40000424) -- Data:  00 00 00 00  returns 0x00 (0007ms, 2151ms total)
T0B80 019:794 JLINK_ReadMem (0x40020410, 0x0004 Bytes, ...) -- CPU is running -- CPU_ReadMem(4 bytes @ 0x40020410) -- Data:  52 0F 00 00  returns 0x00 (0003ms, 2154ms total)
T0B80 019:797 JLINK_ReadMem (0x40020010, 0x0004 Bytes, ...) -- CPU is running -- CPU_ReadMem(4 bytes @ 0x40020010) -- Data:  01 80 00 00  returns 0x00 (0003ms, 2157ms total)
T0B80 019:800 JLINK_ReadMem (0x20000358, 0x0004 Bytes, ...) -- CPU is running -- CPU_ReadMem(4 bytes @ 0x20000358) -- Data:  00 00 00 00  returns 0x00 (0003ms, 2160ms total)
T0F68 019:804 JLINK_IsHalted()  returns FALSE (0004ms, 2164ms total)
T0F68 019:908 JLINK_IsHalted()  returns FALSE (0026ms, 2186ms total)
T0F68 020:035 JLINK_IsHalted()  returns FALSE (0035ms, 2195ms total)
T0F68 020:170 JLINK_IsHalted()  returns FALSE (0031ms, 2191ms total)
T0F68 020:302 JLINK_ReadMemU32(0xE0001004, 0x0001 Items, ...) -- CPU is running -- CPU_ReadMem(4 bytes @ 0xE0001004) -- Data:  92 97 2D 33  returns 0x01 (0032ms, 2192ms total)
T0B80 020:335 JLINK_ReadMem (0x40000424, 0x0004 Bytes, ...) -- CPU is running -- CPU_ReadMem(4 bytes @ 0x40000424) -- Data:  00 00 00 00  returns 0x00 (0009ms, 2201ms total)
T0B80 020:344 JLINK_ReadMem (0x40020410, 0x0004 Bytes, ...) -- CPU is running -- CPU_ReadMem(4 bytes @ 0x40020410) -- Data:  52 0F 00 00  returns 0x00 (0004ms, 2205ms total)
T0B80 020:348 JLINK_ReadMem (0x40020010, 0x0004 Bytes, ...) -- CPU is running -- CPU_ReadMem(4 bytes @ 0x40020010) -- Data:  01 80 00 00  returns 0x00 (0003ms, 2208ms total)
T0B80 020:351 JLINK_ReadMem (0x20000358, 0x0004 Bytes, ...) -- CPU is running -- CPU_ReadMem(4 bytes @ 0x20000358) -- Data:  00 00 00 00  returns 0x00 (0005ms, 2213ms total)
T0F68 020:356 JLINK_IsHalted()  returns FALSE (0003ms, 2216ms total)
T0F68 020:459 JLINK_IsHalted()  returns FALSE (0033ms, 2246ms total)
T0F68 020:593 JLINK_IsHalted()  returns FALSE (0034ms, 2247ms total)
T0F68 020:729 JLINK_IsHalted()  returns FALSE (0031ms, 2244ms total)
T0F68 020:861 JLINK_ReadMemU32(0xE0001004, 0x0001 Items, ...) -- CPU is running -- CPU_ReadMem(4 bytes @ 0xE0001004) -- Data:  2A 1E EF 34  returns 0x01 (0009ms, 2222ms total)
T0B80 020:870 JLINK_ReadMem (0x40000424, 0x0004 Bytes, ...) -- CPU is running -- CPU_ReadMem(4 bytes @ 0x40000424) -- Data:  00 00 00 00  returns 0x00 (0005ms, 2227ms total)
T0B80 020:875 JLINK_ReadMem (0x40020410, 0x0004 Bytes, ...) -- CPU is running -- CPU_ReadMem(4 bytes @ 0x40020410) -- Data:  52 0F 00 00  returns 0x00 (0003ms, 2230ms total)
T0B80 020:878 JLINK_ReadMem (0x40020010, 0x0004 Bytes, ...) -- CPU is running -- CPU_ReadMem(4 bytes @ 0x40020010) -- Data:  01 80 00 00  returns 0x00 (0003ms, 2233ms total)
T0B80 020:881 JLINK_ReadMem (0x20000358, 0x0004 Bytes, ...) -- CPU is running -- CPU_ReadMem(4 bytes @ 0x20000358) -- Data:  00 00 00 00  returns 0x00 (0005ms, 2238ms total)
